# vsim -c top 
# Start time: 23:29:51 on Dec 03,2025
# ** Note: (vsim-3813) Design is being optimized due to module recompilation...
# //  Questa Sim
# //  Version 10.6c linux Jul 25 2017
# //
# //  Copyright 1991-2017 Mentor Graphics Corporation
# //  All Rights Reserved.
# //
# //  QuestaSim and its associated documentation contain trade
# //  secrets and commercial or financial information that are the property of
# //  Mentor Graphics Corporation and are privileged, confidential,
# //  and exempt from disclosure under the Freedom of Information Act,
# //  5 U.S.C. Section 552. Furthermore, this information
# //  is prohibited from disclosure under the Trade Secrets Act,
# //  18 U.S.C. Section 1905.
# //
# Loading sv_std.std
# Loading work.apb_if(fast)
# Loading work.uvm_pkg(fast)
# Loading work.apb_master_pkg(fast)
# ** Note: (vsim-8785) UVM-aware debugging capabilities will be disabled since no compiled "questa_uvm_pkg" can be found.
# This also means that later if you turn on UVM-aware debugging your debug simulations may have
# different random seeds from your non-debug simulations.
# Loading work.testbench_sv_unit(fast)
# Loading work.top(fast)
# ----------------------------------------------------------------
# UVM-1.1d
# (C) 2007-2013 Mentor Graphics Corporation
# (C) 2007-2013 Cadence Design Systems, Inc.
# (C) 2006-2013 Synopsys, Inc.
# (C) 2011-2013 Cypress Semiconductor Corp.
# ----------------------------------------------------------------
# 
#   ***********       IMPORTANT RELEASE NOTES         ************
# 
#   You are using a version of the UVM library that has been compiled
#   with `UVM_NO_DEPRECATED undefined.
#   See http://www.eda.org/svdb/view.php?id=3313 for more details.
# 
#   You are using a version of the UVM library that has been compiled
#   with `UVM_OBJECT_MUST_HAVE_CONSTRUCTOR undefined.
#   See http://www.eda.org/svdb/view.php?id=3770 for more details.
# 
#       (Specify +UVM_NO_RELNOTES to turn off this notice)
# 
# UVM_INFO @ 0: reporter [RNTST] Running test apb_master_test...
# ** Warning: (vsim-3881) apb_master_subscriber.sv(18): Sign-and-Width conversion applied in bin 'wdata' for Coverpoint 'wdata_in_cp'. Value '-1' changed to '0 (minimum)' value.
#    Time: 0 ns  Iteration: 7  Region: /uvm_pkg::uvm_phase::m_run_phases
# ** Warning: (vsim-3882) apb_master_subscriber.sv(18): Out of bounds value range in bin 'wdata' for Coverpoint 'wdata_in_cp' converted to nearest valid bounded range of [0:0].
#    Time: 0 ns  Iteration: 7  Region: /uvm_pkg::uvm_phase::m_run_phases
# ** Warning: (vsim-3881) apb_master_subscriber.sv(19): Sign-and-Width conversion applied in bin 'prdata' for Coverpoint 'PRDATA_cp'. Value '-1' changed to '0 (minimum)' value.
#    Time: 0 ns  Iteration: 7  Region: /uvm_pkg::uvm_phase::m_run_phases
# ** Warning: (vsim-3882) apb_master_subscriber.sv(19): Out of bounds value range in bin 'prdata' for Coverpoint 'PRDATA_cp' converted to nearest valid bounded range of [0:0].
#    Time: 0 ns  Iteration: 7  Region: /uvm_pkg::uvm_phase::m_run_phases
# ** Warning: (vsim-3881) apb_master_subscriber.sv(34): Sign-and-Width conversion applied in bin 'rdata' for Coverpoint 'rdata_out_cp'. Value '-1' changed to '0 (minimum)' value.
#    Time: 0 ns  Iteration: 7  Region: /uvm_pkg::uvm_phase::m_run_phases
# ** Warning: (vsim-3882) apb_master_subscriber.sv(34): Out of bounds value range in bin 'rdata' for Coverpoint 'rdata_out_cp' converted to nearest valid bounded range of [0:0].
#    Time: 0 ns  Iteration: 7  Region: /uvm_pkg::uvm_phase::m_run_phases
# UVM_INFO apb_master_test.sv(24) @ 0: uvm_test_top [APB_TEST] Starting APB Master test
# ** Warning: (vsim-PLI-3070) apb_master_driver.sv(39): $sformatf : Too many arguments.
#    Time: 15 ns  Iteration: 6  Region: /uvm_pkg::uvm_task_phase::execute
# UVM_INFO apb_master_driver.sv(39) @ 15: uvm_test_top.env.a_agt.drv [apb_master_driver] driver1 time                   15
# -----------------------------------------------------------------------------------------
# Name                           Type                 Size  Value                          
# -----------------------------------------------------------------------------------------
# seq                            apb_master_seq_item  -     @828                           
#   PRESETn                      integral             1     'b1                            
#   PSEL                         integral             1     'b0x                           
#   PENABLE                      integral             1     'b0x                           
#   PWRITE                       integral             1     'b0x                           
#   PADDR                        integral             8     'dX                            
#   PWDATA                       integral             32    'dX                            
#   PSTRB                        integral             4     'dX                            
#   PRDATA                       integral             8     240                            
#   PSLVERR                      integral             1     'b0                            
#   PREADY                       integral             1     'b1                            
#   transfer                     integral             1     'b1                            
#   write_read                   integral             1     'b1                            
#   addr_in                      integral             8     170                            
#   wdata_in                     integral             32    'd1480792975                   
#   strb_in                      integral             4     'b1010                         
#   rdata_out                    integral             32    'dX                            
#   transfer_done                integral             1     'b0x                           
#   error                        integral             1     'b0x                           
#   begin_time                   time                 64    15                             
#   depth                        int                  32    'd2                            
#   parent sequence (name)       string               3     seq                            
#   parent sequence (full name)  string               31    uvm_test_top.env.a_agt.seqr.seq
#   sequencer                    string               27    uvm_test_top.env.a_agt.seqr    
# -----------------------------------------------------------------------------------------
# ** Warning: (vsim-PLI-3070) apb_master_driver.sv(82): $sformatf : Too many arguments.
#    Time: 25 ns  Iteration: 3  Region: /uvm_pkg::uvm_task_phase::execute
# UVM_INFO apb_master_driver.sv(82) @ 25: uvm_test_top.env.a_agt.drv [apb_master_driver] driver2 time                  25
# -----------------------------------------------------------------------------------------
# Name                           Type                 Size  Value                          
# -----------------------------------------------------------------------------------------
# seq                            apb_master_seq_item  -     @828                           
#   PRESETn                      integral             1     'b1                            
#   PSEL                         integral             1     'b0x                           
#   PENABLE                      integral             1     'b0x                           
#   PWRITE                       integral             1     'b0x                           
#   PADDR                        integral             8     'dX                            
#   PWDATA                       integral             32    'dX                            
#   PSTRB                        integral             4     'dX                            
#   PRDATA                       integral             8     240                            
#   PSLVERR                      integral             1     'b0                            
#   PREADY                       integral             1     'b1                            
#   transfer                     integral             1     'b1                            
#   write_read                   integral             1     'b1                            
#   addr_in                      integral             8     170                            
#   wdata_in                     integral             32    'd1480792975                   
#   strb_in                      integral             4     'b1010                         
#   rdata_out                    integral             32    'dX                            
#   transfer_done                integral             1     'b0x                           
#   error                        integral             1     'b0x                           
#   begin_time                   time                 64    15                             
#   depth                        int                  32    'd2                            
#   parent sequence (name)       string               3     seq                            
#   parent sequence (full name)  string               31    uvm_test_top.env.a_agt.seqr.seq
#   sequencer                    string               27    uvm_test_top.env.a_agt.seqr    
# -----------------------------------------------------------------------------------------
# ** Warning: (vsim-PLI-3070) apb_master_active_monitor.sv(40): $sformatf : Too many arguments.
#    Time: 25 ns  Iteration: 3  Region: /uvm_pkg::uvm_task_phase::execute
# UVM_INFO apb_master_active_monitor.sv(40) @ 25: uvm_test_top.env.a_agt.mon [apb_master_active_monitor] Active monitor time                  25
# --------------------------------------------------------
# Name             Type                 Size  Value       
# --------------------------------------------------------
# seq              apb_master_seq_item  -     @856        
#   PRESETn        integral             1     'b1         
#   PSEL           integral             1     'b0x        
#   PENABLE        integral             1     'b0x        
#   PWRITE         integral             1     'b0x        
#   PADDR          integral             8     'dX         
#   PWDATA         integral             32    'dX         
#   PSTRB          integral             4     'dX         
#   PRDATA         integral             8     240         
#   PSLVERR        integral             1     'b0         
#   PREADY         integral             1     'b1         
#   transfer       integral             1     'b1         
#   write_read     integral             1     'b1         
#   addr_in        integral             8     170         
#   wdata_in       integral             32    'd1480792975
#   strb_in        integral             4     'b1010      
#   rdata_out      integral             32    'dX         
#   transfer_done  integral             1     'b0x        
#   error          integral             1     'b0x        
# --------------------------------------------------------
# ** Warning: (vsim-PLI-3070) apb_master_driver.sv(126): $sformatf : Too many arguments.
#    Time: 35 ns  Iteration: 3  Region: /uvm_pkg::uvm_task_phase::execute
# UVM_INFO apb_master_driver.sv(126) @ 35: uvm_test_top.env.a_agt.drv [apb_master_driver] driver3 time                   35
# -----------------------------------------------------------------------------------------
# Name                           Type                 Size  Value                          
# -----------------------------------------------------------------------------------------
# seq                            apb_master_seq_item  -     @828                           
#   PRESETn                      integral             1     'b1                            
#   PSEL                         integral             1     'b0x                           
#   PENABLE                      integral             1     'b0x                           
#   PWRITE                       integral             1     'b0x                           
#   PADDR                        integral             8     'dX                            
#   PWDATA                       integral             32    'dX                            
#   PSTRB                        integral             4     'dX                            
#   PRDATA                       integral             8     240                            
#   PSLVERR                      integral             1     'b0                            
#   PREADY                       integral             1     'b1                            
#   transfer                     integral             1     'b1                            
#   write_read                   integral             1     'b1                            
#   addr_in                      integral             8     170                            
#   wdata_in                     integral             32    'd1480792975                   
#   strb_in                      integral             4     'b1010                         
#   rdata_out                    integral             32    'dX                            
#   transfer_done                integral             1     'b0x                           
#   error                        integral             1     'b0x                           
#   begin_time                   time                 64    15                             
#   depth                        int                  32    'd2                            
#   parent sequence (name)       string               3     seq                            
#   parent sequence (full name)  string               31    uvm_test_top.env.a_agt.seqr.seq
#   sequencer                    string               27    uvm_test_top.env.a_agt.seqr    
# -----------------------------------------------------------------------------------------
# ** Warning: (vsim-PLI-3070) apb_master_active_monitor.sv(40): $sformatf : Too many arguments.
#    Time: 35 ns  Iteration: 3  Region: /uvm_pkg::uvm_task_phase::execute
# UVM_INFO apb_master_active_monitor.sv(40) @ 35: uvm_test_top.env.a_agt.mon [apb_master_active_monitor] Active monitor time                  35
# --------------------------------------------------------
# Name             Type                 Size  Value       
# --------------------------------------------------------
# seq              apb_master_seq_item  -     @860        
#   PRESETn        integral             1     'b1         
#   PSEL           integral             1     'b0x        
#   PENABLE        integral             1     'b0x        
#   PWRITE         integral             1     'b0x        
#   PADDR          integral             8     'dX         
#   PWDATA         integral             32    'dX         
#   PSTRB          integral             4     'dX         
#   PRDATA         integral             8     240         
#   PSLVERR        integral             1     'b0         
#   PREADY         integral             1     'b1         
#   transfer       integral             1     'b1         
#   write_read     integral             1     'b1         
#   addr_in        integral             8     170         
#   wdata_in       integral             32    'd1480792975
#   strb_in        integral             4     'b1010      
#   rdata_out      integral             32    'dX         
#   transfer_done  integral             1     'b0x        
#   error          integral             1     'b0x        
# --------------------------------------------------------
# ** Warning: (vsim-PLI-3070) apb_master_passive_monitor.sv(43): $sformatf : Too many arguments.
#    Time: 35 ns  Iteration: 4  Region: /uvm_pkg::uvm_task_phase::execute
# UVM_INFO apb_master_passive_monitor.sv(43) @ 35: uvm_test_top.env.p_agt.mon [apb_master_passive_monitor] Passive monitor time                  35
# ---------------------------------------------------
# Name             Type                 Size  Value  
# ---------------------------------------------------
# tr               apb_master_seq_item  -     @869   
#   PRESETn        integral             1     'b0x   
#   PSEL           integral             1     'b0    
#   PENABLE        integral             1     'b0    
#   PWRITE         integral             1     'b0    
#   PADDR          integral             8     'd0    
#   PWDATA         integral             32    'd0    
#   PSTRB          integral             4     'd0    
#   PRDATA         integral             8     'dX    
#   PSLVERR        integral             1     'b0x   
#   PREADY         integral             1     'b0x   
#   transfer       integral             1     'b0x   
#   write_read     integral             1     'b0x   
#   addr_in        integral             8     'dX    
#   wdata_in       integral             32    'dX    
#   strb_in        integral             4     'b0xxxx
#   rdata_out      integral             32    'd0    
#   transfer_done  integral             1     'b0    
#   error          integral             1     'b0    
# ---------------------------------------------------
# UVM_INFO apb_master_scoreboard.sv(137) @ 35: uvm_test_top.env.scb [APB_SCB] PSEL PASS  Exp=0  Act=0
# UVM_INFO apb_master_scoreboard.sv(142) @ 35: uvm_test_top.env.scb [APB_SCB] PENABLE PASS  Exp=0  Act=0
# UVM_INFO apb_master_scoreboard.sv(147) @ 35: uvm_test_top.env.scb [APB_SCB] PWRITE PASS  Exp=0  Act=0
# UVM_INFO apb_master_scoreboard.sv(152) @ 35: uvm_test_top.env.scb [APB_SCB] PADDR PASS  Exp=0  Act=0
# UVM_INFO apb_master_scoreboard.sv(157) @ 35: uvm_test_top.env.scb [APB_SCB] PWDATA PASS  Exp=0  Act=0
# UVM_INFO apb_master_scoreboard.sv(162) @ 35: uvm_test_top.env.scb [APB_SCB] PSTRB PASS  Exp=0  Act=0
# UVM_INFO apb_master_scoreboard.sv(167) @ 35: uvm_test_top.env.scb [APB_SCB] RDATA PASS  Exp=0  Act=0
# UVM_INFO apb_master_scoreboard.sv(172) @ 35: uvm_test_top.env.scb [APB_SCB] DONE PASS  Exp=0  Act=0
# UVM_INFO apb_master_scoreboard.sv(177) @ 35: uvm_test_top.env.scb [APB_SCB] ERROR PASS  Exp=0  Act=0
# ** Warning: (vsim-PLI-3070) apb_master_active_monitor.sv(40): $sformatf : Too many arguments.
#    Time: 45 ns  Iteration: 3  Region: /uvm_pkg::uvm_task_phase::execute
# UVM_INFO apb_master_active_monitor.sv(40) @ 45: uvm_test_top.env.a_agt.mon [apb_master_active_monitor] Active monitor time                  45
# --------------------------------------------------------
# Name             Type                 Size  Value       
# --------------------------------------------------------
# seq              apb_master_seq_item  -     @873        
#   PRESETn        integral             1     'b1         
#   PSEL           integral             1     'b0x        
#   PENABLE        integral             1     'b0x        
#   PWRITE         integral             1     'b0x        
#   PADDR          integral             8     'dX         
#   PWDATA         integral             32    'dX         
#   PSTRB          integral             4     'dX         
#   PRDATA         integral             8     240         
#   PSLVERR        integral             1     'b0         
#   PREADY         integral             1     'b1         
#   transfer       integral             1     'b1         
#   write_read     integral             1     'b1         
#   addr_in        integral             8     170         
#   wdata_in       integral             32    'd1480792975
#   strb_in        integral             4     'b1010      
#   rdata_out      integral             32    'dX         
#   transfer_done  integral             1     'b0x        
#   error          integral             1     'b0x        
# --------------------------------------------------------
# ** Warning: (vsim-PLI-3070) apb_master_passive_monitor.sv(43): $sformatf : Too many arguments.
#    Time: 45 ns  Iteration: 4  Region: /uvm_pkg::uvm_task_phase::execute
# UVM_INFO apb_master_passive_monitor.sv(43) @ 45: uvm_test_top.env.p_agt.mon [apb_master_passive_monitor] Passive monitor time                  45
# --------------------------------------------------------
# Name             Type                 Size  Value       
# --------------------------------------------------------
# tr               apb_master_seq_item  -     @877        
#   PRESETn        integral             1     'b0x        
#   PSEL           integral             1     'b1         
#   PENABLE        integral             1     'b0         
#   PWRITE         integral             1     'b1         
#   PADDR          integral             8     170         
#   PWDATA         integral             32    'd1480792975
#   PSTRB          integral             4     10          
#   PRDATA         integral             8     'dX         
#   PSLVERR        integral             1     'b0x        
#   PREADY         integral             1     'b0x        
#   transfer       integral             1     'b0x        
#   write_read     integral             1     'b0x        
#   addr_in        integral             8     'dX         
#   wdata_in       integral             32    'dX         
#   strb_in        integral             4     'b0xxxx     
#   rdata_out      integral             32    'd0         
#   transfer_done  integral             1     'b0         
#   error          integral             1     'b0         
# --------------------------------------------------------
# UVM_INFO apb_master_scoreboard.sv(137) @ 45: uvm_test_top.env.scb [APB_SCB] PSEL PASS  Exp=1  Act=1
# UVM_INFO apb_master_scoreboard.sv(142) @ 45: uvm_test_top.env.scb [APB_SCB] PENABLE PASS  Exp=0  Act=0
# UVM_ERROR apb_master_scoreboard.sv(149) @ 45: uvm_test_top.env.scb [APB_SCB] PWRITE FAIL  Exp=0  Act=1
# UVM_ERROR apb_master_scoreboard.sv(154) @ 45: uvm_test_top.env.scb [APB_SCB] PADDR FAIL  Exp=0  Act=170
# UVM_ERROR apb_master_scoreboard.sv(159) @ 45: uvm_test_top.env.scb [APB_SCB] PWDATA FAIL  Exp=0  Act=1480792975
# UVM_ERROR apb_master_scoreboard.sv(164) @ 45: uvm_test_top.env.scb [APB_SCB] PSTRB FAIL  Exp=0  Act=10
# UVM_INFO apb_master_scoreboard.sv(167) @ 45: uvm_test_top.env.scb [APB_SCB] RDATA PASS  Exp=0  Act=0
# UVM_INFO apb_master_scoreboard.sv(172) @ 45: uvm_test_top.env.scb [APB_SCB] DONE PASS  Exp=0  Act=0
# UVM_INFO apb_master_scoreboard.sv(177) @ 45: uvm_test_top.env.scb [APB_SCB] ERROR PASS  Exp=0  Act=0
# ** Warning: (vsim-PLI-3070) apb_master_driver.sv(39): $sformatf : Too many arguments.
#    Time: 45 ns  Iteration: 8  Region: /uvm_pkg::uvm_task_phase::execute
# UVM_INFO apb_master_driver.sv(39) @ 45: uvm_test_top.env.a_agt.drv [apb_master_driver] driver1 time                   45
# -----------------------------------------------------------------------------------------
# Name                           Type                 Size  Value                          
# -----------------------------------------------------------------------------------------
# seq                            apb_master_seq_item  -     @865                           
#   PRESETn                      integral             1     'b1                            
#   PSEL                         integral             1     'b0x                           
#   PENABLE                      integral             1     'b0x                           
#   PWRITE                       integral             1     'b0x                           
#   PADDR                        integral             8     'dX                            
#   PWDATA                       integral             32    'dX                            
#   PSTRB                        integral             4     'dX                            
#   PRDATA                       integral             8     'd117                          
#   PSLVERR                      integral             1     'b0                            
#   PREADY                       integral             1     'b1                            
#   transfer                     integral             1     'b1                            
#   write_read                   integral             1     'b1                            
#   addr_in                      integral             8     'd77                           
#   wdata_in                     integral             32    'd1571750853                   
#   strb_in                      integral             4     'b110                          
#   rdata_out                    integral             32    'dX                            
#   transfer_done                integral             1     'b0x                           
#   error                        integral             1     'b0x                           
#   begin_time                   time                 64    45                             
#   depth                        int                  32    'd2                            
#   parent sequence (name)       string               3     seq                            
#   parent sequence (full name)  string               31    uvm_test_top.env.a_agt.seqr.seq
#   sequencer                    string               27    uvm_test_top.env.a_agt.seqr    
# -----------------------------------------------------------------------------------------
# ** Warning: (vsim-PLI-3070) apb_master_driver.sv(82): $sformatf : Too many arguments.
#    Time: 55 ns  Iteration: 3  Region: /uvm_pkg::uvm_task_phase::execute
# UVM_INFO apb_master_driver.sv(82) @ 55: uvm_test_top.env.a_agt.drv [apb_master_driver] driver2 time                  55
# -----------------------------------------------------------------------------------------
# Name                           Type                 Size  Value                          
# -----------------------------------------------------------------------------------------
# seq                            apb_master_seq_item  -     @865                           
#   PRESETn                      integral             1     'b1                            
#   PSEL                         integral             1     'b0x                           
#   PENABLE                      integral             1     'b0x                           
#   PWRITE                       integral             1     'b0x                           
#   PADDR                        integral             8     'dX                            
#   PWDATA                       integral             32    'dX                            
#   PSTRB                        integral             4     'dX                            
#   PRDATA                       integral             8     'd117                          
#   PSLVERR                      integral             1     'b0                            
#   PREADY                       integral             1     'b1                            
#   transfer                     integral             1     'b1                            
#   write_read                   integral             1     'b1                            
#   addr_in                      integral             8     'd77                           
#   wdata_in                     integral             32    'd1571750853                   
#   strb_in                      integral             4     'b110                          
#   rdata_out                    integral             32    'dX                            
#   transfer_done                integral             1     'b0x                           
#   error                        integral             1     'b0x                           
#   begin_time                   time                 64    45                             
#   depth                        int                  32    'd2                            
#   parent sequence (name)       string               3     seq                            
#   parent sequence (full name)  string               31    uvm_test_top.env.a_agt.seqr.seq
#   sequencer                    string               27    uvm_test_top.env.a_agt.seqr    
# -----------------------------------------------------------------------------------------
# ** Warning: (vsim-PLI-3070) apb_master_active_monitor.sv(40): $sformatf : Too many arguments.
#    Time: 55 ns  Iteration: 3  Region: /uvm_pkg::uvm_task_phase::execute
# UVM_INFO apb_master_active_monitor.sv(40) @ 55: uvm_test_top.env.a_agt.mon [apb_master_active_monitor] Active monitor time                  55
# --------------------------------------------------------
# Name             Type                 Size  Value       
# --------------------------------------------------------
# seq              apb_master_seq_item  -     @881        
#   PRESETn        integral             1     'b1         
#   PSEL           integral             1     'b0x        
#   PENABLE        integral             1     'b0x        
#   PWRITE         integral             1     'b0x        
#   PADDR          integral             8     'dX         
#   PWDATA         integral             32    'dX         
#   PSTRB          integral             4     'dX         
#   PRDATA         integral             8     'd117       
#   PSLVERR        integral             1     'b0         
#   PREADY         integral             1     'b1         
#   transfer       integral             1     'b1         
#   write_read     integral             1     'b1         
#   addr_in        integral             8     'd77        
#   wdata_in       integral             32    'd1571750853
#   strb_in        integral             4     'b110       
#   rdata_out      integral             32    'dX         
#   transfer_done  integral             1     'b0x        
#   error          integral             1     'b0x        
# --------------------------------------------------------
# ** Warning: (vsim-PLI-3070) apb_master_passive_monitor.sv(43): $sformatf : Too many arguments.
#    Time: 55 ns  Iteration: 4  Region: /uvm_pkg::uvm_task_phase::execute
# UVM_INFO apb_master_passive_monitor.sv(43) @ 55: uvm_test_top.env.p_agt.mon [apb_master_passive_monitor] Passive monitor time                  55
# --------------------------------------------------------
# Name             Type                 Size  Value       
# --------------------------------------------------------
# tr               apb_master_seq_item  -     @885        
#   PRESETn        integral             1     'b0x        
#   PSEL           integral             1     'b1         
#   PENABLE        integral             1     'b1         
#   PWRITE         integral             1     'b1         
#   PADDR          integral             8     170         
#   PWDATA         integral             32    'd1480792975
#   PSTRB          integral             4     10          
#   PRDATA         integral             8     'dX         
#   PSLVERR        integral             1     'b0x        
#   PREADY         integral             1     'b0x        
#   transfer       integral             1     'b0x        
#   write_read     integral             1     'b0x        
#   addr_in        integral             8     'dX         
#   wdata_in       integral             32    'dX         
#   strb_in        integral             4     'b0xxxx     
#   rdata_out      integral             32    'd0         
#   transfer_done  integral             1     'b1         
#   error          integral             1     'b0         
# --------------------------------------------------------
# UVM_INFO apb_master_scoreboard.sv(137) @ 55: uvm_test_top.env.scb [APB_SCB] PSEL PASS  Exp=1  Act=1
# UVM_INFO apb_master_scoreboard.sv(142) @ 55: uvm_test_top.env.scb [APB_SCB] PENABLE PASS  Exp=1  Act=1
# UVM_INFO apb_master_scoreboard.sv(147) @ 55: uvm_test_top.env.scb [APB_SCB] PWRITE PASS  Exp=1  Act=1
# UVM_INFO apb_master_scoreboard.sv(152) @ 55: uvm_test_top.env.scb [APB_SCB] PADDR PASS  Exp=170  Act=170
# UVM_INFO apb_master_scoreboard.sv(157) @ 55: uvm_test_top.env.scb [APB_SCB] PWDATA PASS  Exp=1480792975  Act=1480792975
# UVM_INFO apb_master_scoreboard.sv(162) @ 55: uvm_test_top.env.scb [APB_SCB] PSTRB PASS  Exp=10  Act=10
# UVM_INFO apb_master_scoreboard.sv(167) @ 55: uvm_test_top.env.scb [APB_SCB] RDATA PASS  Exp=0  Act=0
# UVM_INFO apb_master_scoreboard.sv(172) @ 55: uvm_test_top.env.scb [APB_SCB] DONE PASS  Exp=1  Act=1
# UVM_INFO apb_master_scoreboard.sv(177) @ 55: uvm_test_top.env.scb [APB_SCB] ERROR PASS  Exp=0  Act=0
# ** Warning: (vsim-PLI-3070) apb_master_driver.sv(126): $sformatf : Too many arguments.
#    Time: 65 ns  Iteration: 3  Region: /uvm_pkg::uvm_task_phase::execute
# UVM_INFO apb_master_driver.sv(126) @ 65: uvm_test_top.env.a_agt.drv [apb_master_driver] driver3 time                   65
# -----------------------------------------------------------------------------------------
# Name                           Type                 Size  Value                          
# -----------------------------------------------------------------------------------------
# seq                            apb_master_seq_item  -     @865                           
#   PRESETn                      integral             1     'b1                            
#   PSEL                         integral             1     'b0x                           
#   PENABLE                      integral             1     'b0x                           
#   PWRITE                       integral             1     'b0x                           
#   PADDR                        integral             8     'dX                            
#   PWDATA                       integral             32    'dX                            
#   PSTRB                        integral             4     'dX                            
#   PRDATA                       integral             8     'd117                          
#   PSLVERR                      integral             1     'b0                            
#   PREADY                       integral             1     'b1                            
#   transfer                     integral             1     'b1                            
#   write_read                   integral             1     'b1                            
#   addr_in                      integral             8     'd77                           
#   wdata_in                     integral             32    'd1571750853                   
#   strb_in                      integral             4     'b110                          
#   rdata_out                    integral             32    'dX                            
#   transfer_done                integral             1     'b0x                           
#   error                        integral             1     'b0x                           
#   begin_time                   time                 64    45                             
#   depth                        int                  32    'd2                            
#   parent sequence (name)       string               3     seq                            
#   parent sequence (full name)  string               31    uvm_test_top.env.a_agt.seqr.seq
#   sequencer                    string               27    uvm_test_top.env.a_agt.seqr    
# -----------------------------------------------------------------------------------------
# ** Warning: (vsim-PLI-3070) apb_master_active_monitor.sv(40): $sformatf : Too many arguments.
#    Time: 65 ns  Iteration: 3  Region: /uvm_pkg::uvm_task_phase::execute
# UVM_INFO apb_master_active_monitor.sv(40) @ 65: uvm_test_top.env.a_agt.mon [apb_master_active_monitor] Active monitor time                  65
# --------------------------------------------------------
# Name             Type                 Size  Value       
# --------------------------------------------------------
# seq              apb_master_seq_item  -     @889        
#   PRESETn        integral             1     'b1         
#   PSEL           integral             1     'b0x        
#   PENABLE        integral             1     'b0x        
#   PWRITE         integral             1     'b0x        
#   PADDR          integral             8     'dX         
#   PWDATA         integral             32    'dX         
#   PSTRB          integral             4     'dX         
#   PRDATA         integral             8     'd117       
#   PSLVERR        integral             1     'b0         
#   PREADY         integral             1     'b1         
#   transfer       integral             1     'b1         
#   write_read     integral             1     'b1         
#   addr_in        integral             8     'd77        
#   wdata_in       integral             32    'd1571750853
#   strb_in        integral             4     'b110       
#   rdata_out      integral             32    'dX         
#   transfer_done  integral             1     'b0x        
#   error          integral             1     'b0x        
# --------------------------------------------------------
# ** Warning: (vsim-PLI-3070) apb_master_passive_monitor.sv(43): $sformatf : Too many arguments.
#    Time: 65 ns  Iteration: 4  Region: /uvm_pkg::uvm_task_phase::execute
# UVM_INFO apb_master_passive_monitor.sv(43) @ 65: uvm_test_top.env.p_agt.mon [apb_master_passive_monitor] Passive monitor time                  65
# --------------------------------------------------------
# Name             Type                 Size  Value       
# --------------------------------------------------------
# tr               apb_master_seq_item  -     @897        
#   PRESETn        integral             1     'b0x        
#   PSEL           integral             1     'b0         
#   PENABLE        integral             1     'b0         
#   PWRITE         integral             1     'b1         
#   PADDR          integral             8     170         
#   PWDATA         integral             32    'd1480792975
#   PSTRB          integral             4     10          
#   PRDATA         integral             8     'dX         
#   PSLVERR        integral             1     'b0x        
#   PREADY         integral             1     'b0x        
#   transfer       integral             1     'b0x        
#   write_read     integral             1     'b0x        
#   addr_in        integral             8     'dX         
#   wdata_in       integral             32    'dX         
#   strb_in        integral             4     'b0xxxx     
#   rdata_out      integral             32    'd0         
#   transfer_done  integral             1     'b0         
#   error          integral             1     'b0         
# --------------------------------------------------------
# UVM_ERROR apb_master_scoreboard.sv(139) @ 65: uvm_test_top.env.scb [APB_SCB] PSEL FAIL  Exp=1  Act=0
# UVM_INFO apb_master_scoreboard.sv(142) @ 65: uvm_test_top.env.scb [APB_SCB] PENABLE PASS  Exp=0  Act=0
# UVM_INFO apb_master_scoreboard.sv(147) @ 65: uvm_test_top.env.scb [APB_SCB] PWRITE PASS  Exp=1  Act=1
# UVM_INFO apb_master_scoreboard.sv(152) @ 65: uvm_test_top.env.scb [APB_SCB] PADDR PASS  Exp=170  Act=170
# UVM_INFO apb_master_scoreboard.sv(157) @ 65: uvm_test_top.env.scb [APB_SCB] PWDATA PASS  Exp=1480792975  Act=1480792975
# UVM_INFO apb_master_scoreboard.sv(162) @ 65: uvm_test_top.env.scb [APB_SCB] PSTRB PASS  Exp=10  Act=10
# UVM_INFO apb_master_scoreboard.sv(167) @ 65: uvm_test_top.env.scb [APB_SCB] RDATA PASS  Exp=0  Act=0
# UVM_INFO apb_master_scoreboard.sv(172) @ 65: uvm_test_top.env.scb [APB_SCB] DONE PASS  Exp=0  Act=0
# UVM_INFO apb_master_scoreboard.sv(177) @ 65: uvm_test_top.env.scb [APB_SCB] ERROR PASS  Exp=0  Act=0
# ** Warning: (vsim-PLI-3070) apb_master_active_monitor.sv(40): $sformatf : Too many arguments.
#    Time: 75 ns  Iteration: 3  Region: /uvm_pkg::uvm_task_phase::execute
# UVM_INFO apb_master_active_monitor.sv(40) @ 75: uvm_test_top.env.a_agt.mon [apb_master_active_monitor] Active monitor time                  75
# --------------------------------------------------------
# Name             Type                 Size  Value       
# --------------------------------------------------------
# seq              apb_master_seq_item  -     @901        
#   PRESETn        integral             1     'b1         
#   PSEL           integral             1     'b0x        
#   PENABLE        integral             1     'b0x        
#   PWRITE         integral             1     'b0x        
#   PADDR          integral             8     'dX         
#   PWDATA         integral             32    'dX         
#   PSTRB          integral             4     'dX         
#   PRDATA         integral             8     'd117       
#   PSLVERR        integral             1     'b0         
#   PREADY         integral             1     'b1         
#   transfer       integral             1     'b1         
#   write_read     integral             1     'b1         
#   addr_in        integral             8     'd77        
#   wdata_in       integral             32    'd1571750853
#   strb_in        integral             4     'b110       
#   rdata_out      integral             32    'dX         
#   transfer_done  integral             1     'b0x        
#   error          integral             1     'b0x        
# --------------------------------------------------------
# ** Warning: (vsim-PLI-3070) apb_master_passive_monitor.sv(43): $sformatf : Too many arguments.
#    Time: 75 ns  Iteration: 4  Region: /uvm_pkg::uvm_task_phase::execute
# UVM_INFO apb_master_passive_monitor.sv(43) @ 75: uvm_test_top.env.p_agt.mon [apb_master_passive_monitor] Passive monitor time                  75
# --------------------------------------------------------
# Name             Type                 Size  Value       
# --------------------------------------------------------
# tr               apb_master_seq_item  -     @905        
#   PRESETn        integral             1     'b0x        
#   PSEL           integral             1     'b1         
#   PENABLE        integral             1     'b0         
#   PWRITE         integral             1     'b1         
#   PADDR          integral             8     'd77        
#   PWDATA         integral             32    'd1571750853
#   PSTRB          integral             4     'd6         
#   PRDATA         integral             8     'dX         
#   PSLVERR        integral             1     'b0x        
#   PREADY         integral             1     'b0x        
#   transfer       integral             1     'b0x        
#   write_read     integral             1     'b0x        
#   addr_in        integral             8     'dX         
#   wdata_in       integral             32    'dX         
#   strb_in        integral             4     'b0xxxx     
#   rdata_out      integral             32    'd0         
#   transfer_done  integral             1     'b0         
#   error          integral             1     'b0         
# --------------------------------------------------------
# UVM_INFO apb_master_scoreboard.sv(137) @ 75: uvm_test_top.env.scb [APB_SCB] PSEL PASS  Exp=1  Act=1
# UVM_ERROR apb_master_scoreboard.sv(144) @ 75: uvm_test_top.env.scb [APB_SCB] PENABLE FAIL  Exp=1  Act=0
# UVM_INFO apb_master_scoreboard.sv(147) @ 75: uvm_test_top.env.scb [APB_SCB] PWRITE PASS  Exp=1  Act=1
# UVM_INFO apb_master_scoreboard.sv(152) @ 75: uvm_test_top.env.scb [APB_SCB] PADDR PASS  Exp=77  Act=77
# UVM_INFO apb_master_scoreboard.sv(157) @ 75: uvm_test_top.env.scb [APB_SCB] PWDATA PASS  Exp=1571750853  Act=1571750853
# UVM_INFO apb_master_scoreboard.sv(162) @ 75: uvm_test_top.env.scb [APB_SCB] PSTRB PASS  Exp=6  Act=6
# UVM_INFO apb_master_scoreboard.sv(167) @ 75: uvm_test_top.env.scb [APB_SCB] RDATA PASS  Exp=0  Act=0
# UVM_ERROR apb_master_scoreboard.sv(174) @ 75: uvm_test_top.env.scb [APB_SCB] DONE FAIL  Exp=1  Act=0
# UVM_INFO apb_master_scoreboard.sv(177) @ 75: uvm_test_top.env.scb [APB_SCB] ERROR PASS  Exp=0  Act=0
# ** Warning: (vsim-PLI-3070) apb_master_driver.sv(39): $sformatf : Too many arguments.
#    Time: 75 ns  Iteration: 8  Region: /uvm_pkg::uvm_task_phase::execute
# UVM_INFO apb_master_driver.sv(39) @ 75: uvm_test_top.env.a_agt.drv [apb_master_driver] driver1 time                   75
# -----------------------------------------------------------------------------------------
# Name                           Type                 Size  Value                          
# -----------------------------------------------------------------------------------------
# seq                            apb_master_seq_item  -     @893                           
#   PRESETn                      integral             1     'b1                            
#   PSEL                         integral             1     'b0x                           
#   PENABLE                      integral             1     'b0x                           
#   PWRITE                       integral             1     'b0x                           
#   PADDR                        integral             8     'dX                            
#   PWDATA                       integral             32    'dX                            
#   PSTRB                        integral             4     'dX                            
#   PRDATA                       integral             8     'd68                           
#   PSLVERR                      integral             1     'b0                            
#   PREADY                       integral             1     'b1                            
#   transfer                     integral             1     'b1                            
#   write_read                   integral             1     'b1                            
#   addr_in                      integral             8     139                            
#   wdata_in                     integral             32    'd510689322                    
#   strb_in                      integral             4     'b1000                         
#   rdata_out                    integral             32    'dX                            
#   transfer_done                integral             1     'b0x                           
#   error                        integral             1     'b0x                           
#   begin_time                   time                 64    75                             
#   depth                        int                  32    'd2                            
#   parent sequence (name)       string               3     seq                            
#   parent sequence (full name)  string               31    uvm_test_top.env.a_agt.seqr.seq
#   sequencer                    string               27    uvm_test_top.env.a_agt.seqr    
# -----------------------------------------------------------------------------------------
# ** Warning: (vsim-PLI-3070) apb_master_driver.sv(82): $sformatf : Too many arguments.
#    Time: 85 ns  Iteration: 3  Region: /uvm_pkg::uvm_task_phase::execute
# UVM_INFO apb_master_driver.sv(82) @ 85: uvm_test_top.env.a_agt.drv [apb_master_driver] driver2 time                  85
# -----------------------------------------------------------------------------------------
# Name                           Type                 Size  Value                          
# -----------------------------------------------------------------------------------------
# seq                            apb_master_seq_item  -     @893                           
#   PRESETn                      integral             1     'b1                            
#   PSEL                         integral             1     'b0x                           
#   PENABLE                      integral             1     'b0x                           
#   PWRITE                       integral             1     'b0x                           
#   PADDR                        integral             8     'dX                            
#   PWDATA                       integral             32    'dX                            
#   PSTRB                        integral             4     'dX                            
#   PRDATA                       integral             8     'd68                           
#   PSLVERR                      integral             1     'b0                            
#   PREADY                       integral             1     'b1                            
#   transfer                     integral             1     'b1                            
#   write_read                   integral             1     'b1                            
#   addr_in                      integral             8     139                            
#   wdata_in                     integral             32    'd510689322                    
#   strb_in                      integral             4     'b1000                         
#   rdata_out                    integral             32    'dX                            
#   transfer_done                integral             1     'b0x                           
#   error                        integral             1     'b0x                           
#   begin_time                   time                 64    75                             
#   depth                        int                  32    'd2                            
#   parent sequence (name)       string               3     seq                            
#   parent sequence (full name)  string               31    uvm_test_top.env.a_agt.seqr.seq
#   sequencer                    string               27    uvm_test_top.env.a_agt.seqr    
# -----------------------------------------------------------------------------------------
# ** Warning: (vsim-PLI-3070) apb_master_active_monitor.sv(40): $sformatf : Too many arguments.
#    Time: 85 ns  Iteration: 3  Region: /uvm_pkg::uvm_task_phase::execute
# UVM_INFO apb_master_active_monitor.sv(40) @ 85: uvm_test_top.env.a_agt.mon [apb_master_active_monitor] Active monitor time                  85
# -------------------------------------------------------
# Name             Type                 Size  Value      
# -------------------------------------------------------
# seq              apb_master_seq_item  -     @909       
#   PRESETn        integral             1     'b1        
#   PSEL           integral             1     'b0x       
#   PENABLE        integral             1     'b0x       
#   PWRITE         integral             1     'b0x       
#   PADDR          integral             8     'dX        
#   PWDATA         integral             32    'dX        
#   PSTRB          integral             4     'dX        
#   PRDATA         integral             8     'd68       
#   PSLVERR        integral             1     'b0        
#   PREADY         integral             1     'b1        
#   transfer       integral             1     'b1        
#   write_read     integral             1     'b1        
#   addr_in        integral             8     139        
#   wdata_in       integral             32    'd510689322
#   strb_in        integral             4     'b1000     
#   rdata_out      integral             32    'dX        
#   transfer_done  integral             1     'b0x       
#   error          integral             1     'b0x       
# -------------------------------------------------------
# ** Warning: (vsim-PLI-3070) apb_master_passive_monitor.sv(43): $sformatf : Too many arguments.
#    Time: 85 ns  Iteration: 4  Region: /uvm_pkg::uvm_task_phase::execute
# UVM_INFO apb_master_passive_monitor.sv(43) @ 85: uvm_test_top.env.p_agt.mon [apb_master_passive_monitor] Passive monitor time                  85
# --------------------------------------------------------
# Name             Type                 Size  Value       
# --------------------------------------------------------
# tr               apb_master_seq_item  -     @913        
#   PRESETn        integral             1     'b0x        
#   PSEL           integral             1     'b1         
#   PENABLE        integral             1     'b1         
#   PWRITE         integral             1     'b1         
#   PADDR          integral             8     'd77        
#   PWDATA         integral             32    'd1571750853
#   PSTRB          integral             4     'd6         
#   PRDATA         integral             8     'dX         
#   PSLVERR        integral             1     'b0x        
#   PREADY         integral             1     'b0x        
#   transfer       integral             1     'b0x        
#   write_read     integral             1     'b0x        
#   addr_in        integral             8     'dX         
#   wdata_in       integral             32    'dX         
#   strb_in        integral             4     'b0xxxx     
#   rdata_out      integral             32    'd0         
#   transfer_done  integral             1     'b1         
#   error          integral             1     'b0         
# --------------------------------------------------------
# UVM_INFO apb_master_scoreboard.sv(137) @ 85: uvm_test_top.env.scb [APB_SCB] PSEL PASS  Exp=1  Act=1
# UVM_ERROR apb_master_scoreboard.sv(144) @ 85: uvm_test_top.env.scb [APB_SCB] PENABLE FAIL  Exp=0  Act=1
# UVM_INFO apb_master_scoreboard.sv(147) @ 85: uvm_test_top.env.scb [APB_SCB] PWRITE PASS  Exp=1  Act=1
# UVM_INFO apb_master_scoreboard.sv(152) @ 85: uvm_test_top.env.scb [APB_SCB] PADDR PASS  Exp=77  Act=77
# UVM_INFO apb_master_scoreboard.sv(157) @ 85: uvm_test_top.env.scb [APB_SCB] PWDATA PASS  Exp=1571750853  Act=1571750853
# UVM_INFO apb_master_scoreboard.sv(162) @ 85: uvm_test_top.env.scb [APB_SCB] PSTRB PASS  Exp=6  Act=6
# UVM_INFO apb_master_scoreboard.sv(167) @ 85: uvm_test_top.env.scb [APB_SCB] RDATA PASS  Exp=0  Act=0
# UVM_ERROR apb_master_scoreboard.sv(174) @ 85: uvm_test_top.env.scb [APB_SCB] DONE FAIL  Exp=0  Act=1
# UVM_INFO apb_master_scoreboard.sv(177) @ 85: uvm_test_top.env.scb [APB_SCB] ERROR PASS  Exp=0  Act=0
# ** Warning: (vsim-PLI-3070) apb_master_driver.sv(126): $sformatf : Too many arguments.
#    Time: 95 ns  Iteration: 3  Region: /uvm_pkg::uvm_task_phase::execute
# UVM_INFO apb_master_driver.sv(126) @ 95: uvm_test_top.env.a_agt.drv [apb_master_driver] driver3 time                   95
# -----------------------------------------------------------------------------------------
# Name                           Type                 Size  Value                          
# -----------------------------------------------------------------------------------------
# seq                            apb_master_seq_item  -     @893                           
#   PRESETn                      integral             1     'b1                            
#   PSEL                         integral             1     'b0x                           
#   PENABLE                      integral             1     'b0x                           
#   PWRITE                       integral             1     'b0x                           
#   PADDR                        integral             8     'dX                            
#   PWDATA                       integral             32    'dX                            
#   PSTRB                        integral             4     'dX                            
#   PRDATA                       integral             8     'd68                           
#   PSLVERR                      integral             1     'b0                            
#   PREADY                       integral             1     'b1                            
#   transfer                     integral             1     'b1                            
#   write_read                   integral             1     'b1                            
#   addr_in                      integral             8     139                            
#   wdata_in                     integral             32    'd510689322                    
#   strb_in                      integral             4     'b1000                         
#   rdata_out                    integral             32    'dX                            
#   transfer_done                integral             1     'b0x                           
#   error                        integral             1     'b0x                           
#   begin_time                   time                 64    75                             
#   depth                        int                  32    'd2                            
#   parent sequence (name)       string               3     seq                            
#   parent sequence (full name)  string               31    uvm_test_top.env.a_agt.seqr.seq
#   sequencer                    string               27    uvm_test_top.env.a_agt.seqr    
# -----------------------------------------------------------------------------------------
# ** Warning: (vsim-PLI-3070) apb_master_active_monitor.sv(40): $sformatf : Too many arguments.
#    Time: 95 ns  Iteration: 3  Region: /uvm_pkg::uvm_task_phase::execute
# UVM_INFO apb_master_active_monitor.sv(40) @ 95: uvm_test_top.env.a_agt.mon [apb_master_active_monitor] Active monitor time                  95
# -------------------------------------------------------
# Name             Type                 Size  Value      
# -------------------------------------------------------
# seq              apb_master_seq_item  -     @917       
#   PRESETn        integral             1     'b1        
#   PSEL           integral             1     'b0x       
#   PENABLE        integral             1     'b0x       
#   PWRITE         integral             1     'b0x       
#   PADDR          integral             8     'dX        
#   PWDATA         integral             32    'dX        
#   PSTRB          integral             4     'dX        
#   PRDATA         integral             8     'd68       
#   PSLVERR        integral             1     'b0        
#   PREADY         integral             1     'b1        
#   transfer       integral             1     'b1        
#   write_read     integral             1     'b1        
#   addr_in        integral             8     139        
#   wdata_in       integral             32    'd510689322
#   strb_in        integral             4     'b1000     
#   rdata_out      integral             32    'dX        
#   transfer_done  integral             1     'b0x       
#   error          integral             1     'b0x       
# -------------------------------------------------------
# ** Warning: (vsim-PLI-3070) apb_master_passive_monitor.sv(43): $sformatf : Too many arguments.
#    Time: 95 ns  Iteration: 4  Region: /uvm_pkg::uvm_task_phase::execute
# UVM_INFO apb_master_passive_monitor.sv(43) @ 95: uvm_test_top.env.p_agt.mon [apb_master_passive_monitor] Passive monitor time                  95
# --------------------------------------------------------
# Name             Type                 Size  Value       
# --------------------------------------------------------
# tr               apb_master_seq_item  -     @925        
#   PRESETn        integral             1     'b0x        
#   PSEL           integral             1     'b0         
#   PENABLE        integral             1     'b0         
#   PWRITE         integral             1     'b1         
#   PADDR          integral             8     'd77        
#   PWDATA         integral             32    'd1571750853
#   PSTRB          integral             4     'd6         
#   PRDATA         integral             8     'dX         
#   PSLVERR        integral             1     'b0x        
#   PREADY         integral             1     'b0x        
#   transfer       integral             1     'b0x        
#   write_read     integral             1     'b0x        
#   addr_in        integral             8     'dX         
#   wdata_in       integral             32    'dX         
#   strb_in        integral             4     'b0xxxx     
#   rdata_out      integral             32    'd0         
#   transfer_done  integral             1     'b0         
#   error          integral             1     'b0         
# --------------------------------------------------------
# UVM_ERROR apb_master_scoreboard.sv(139) @ 95: uvm_test_top.env.scb [APB_SCB] PSEL FAIL  Exp=1  Act=0
# UVM_ERROR apb_master_scoreboard.sv(144) @ 95: uvm_test_top.env.scb [APB_SCB] PENABLE FAIL  Exp=1  Act=0
# UVM_INFO apb_master_scoreboard.sv(147) @ 95: uvm_test_top.env.scb [APB_SCB] PWRITE PASS  Exp=1  Act=1
# UVM_ERROR apb_master_scoreboard.sv(154) @ 95: uvm_test_top.env.scb [APB_SCB] PADDR FAIL  Exp=139  Act=77
# UVM_ERROR apb_master_scoreboard.sv(159) @ 95: uvm_test_top.env.scb [APB_SCB] PWDATA FAIL  Exp=510689322  Act=1571750853
# UVM_ERROR apb_master_scoreboard.sv(164) @ 95: uvm_test_top.env.scb [APB_SCB] PSTRB FAIL  Exp=8  Act=6
# UVM_INFO apb_master_scoreboard.sv(167) @ 95: uvm_test_top.env.scb [APB_SCB] RDATA PASS  Exp=0  Act=0
# UVM_ERROR apb_master_scoreboard.sv(174) @ 95: uvm_test_top.env.scb [APB_SCB] DONE FAIL  Exp=1  Act=0
# UVM_INFO apb_master_scoreboard.sv(177) @ 95: uvm_test_top.env.scb [APB_SCB] ERROR PASS  Exp=0  Act=0
# ** Warning: (vsim-PLI-3070) apb_master_active_monitor.sv(40): $sformatf : Too many arguments.
#    Time: 105 ns  Iteration: 3  Region: /uvm_pkg::uvm_task_phase::execute
# UVM_INFO apb_master_active_monitor.sv(40) @ 105: uvm_test_top.env.a_agt.mon [apb_master_active_monitor] Active monitor time                 105
# -------------------------------------------------------
# Name             Type                 Size  Value      
# -------------------------------------------------------
# seq              apb_master_seq_item  -     @929       
#   PRESETn        integral             1     'b1        
#   PSEL           integral             1     'b0x       
#   PENABLE        integral             1     'b0x       
#   PWRITE         integral             1     'b0x       
#   PADDR          integral             8     'dX        
#   PWDATA         integral             32    'dX        
#   PSTRB          integral             4     'dX        
#   PRDATA         integral             8     'd68       
#   PSLVERR        integral             1     'b0        
#   PREADY         integral             1     'b1        
#   transfer       integral             1     'b1        
#   write_read     integral             1     'b1        
#   addr_in        integral             8     139        
#   wdata_in       integral             32    'd510689322
#   strb_in        integral             4     'b1000     
#   rdata_out      integral             32    'dX        
#   transfer_done  integral             1     'b0x       
#   error          integral             1     'b0x       
# -------------------------------------------------------
# ** Warning: (vsim-PLI-3070) apb_master_passive_monitor.sv(43): $sformatf : Too many arguments.
#    Time: 105 ns  Iteration: 4  Region: /uvm_pkg::uvm_task_phase::execute
# UVM_INFO apb_master_passive_monitor.sv(43) @ 105: uvm_test_top.env.p_agt.mon [apb_master_passive_monitor] Passive monitor time                 105
# -------------------------------------------------------
# Name             Type                 Size  Value      
# -------------------------------------------------------
# tr               apb_master_seq_item  -     @933       
#   PRESETn        integral             1     'b0x       
#   PSEL           integral             1     'b1        
#   PENABLE        integral             1     'b0        
#   PWRITE         integral             1     'b1        
#   PADDR          integral             8     139        
#   PWDATA         integral             32    'd510689322
#   PSTRB          integral             4     8          
#   PRDATA         integral             8     'dX        
#   PSLVERR        integral             1     'b0x       
#   PREADY         integral             1     'b0x       
#   transfer       integral             1     'b0x       
#   write_read     integral             1     'b0x       
#   addr_in        integral             8     'dX        
#   wdata_in       integral             32    'dX        
#   strb_in        integral             4     'b0xxxx    
#   rdata_out      integral             32    'd0        
#   transfer_done  integral             1     'b0        
#   error          integral             1     'b0        
# -------------------------------------------------------
# UVM_INFO apb_master_scoreboard.sv(137) @ 105: uvm_test_top.env.scb [APB_SCB] PSEL PASS  Exp=1  Act=1
# UVM_INFO apb_master_scoreboard.sv(142) @ 105: uvm_test_top.env.scb [APB_SCB] PENABLE PASS  Exp=0  Act=0
# UVM_INFO apb_master_scoreboard.sv(147) @ 105: uvm_test_top.env.scb [APB_SCB] PWRITE PASS  Exp=1  Act=1
# UVM_INFO apb_master_scoreboard.sv(152) @ 105: uvm_test_top.env.scb [APB_SCB] PADDR PASS  Exp=139  Act=139
# UVM_INFO apb_master_scoreboard.sv(157) @ 105: uvm_test_top.env.scb [APB_SCB] PWDATA PASS  Exp=510689322  Act=510689322
# UVM_INFO apb_master_scoreboard.sv(162) @ 105: uvm_test_top.env.scb [APB_SCB] PSTRB PASS  Exp=8  Act=8
# UVM_INFO apb_master_scoreboard.sv(167) @ 105: uvm_test_top.env.scb [APB_SCB] RDATA PASS  Exp=0  Act=0
# UVM_INFO apb_master_scoreboard.sv(172) @ 105: uvm_test_top.env.scb [APB_SCB] DONE PASS  Exp=0  Act=0
# UVM_INFO apb_master_scoreboard.sv(177) @ 105: uvm_test_top.env.scb [APB_SCB] ERROR PASS  Exp=0  Act=0
# ** Warning: (vsim-PLI-3070) apb_master_driver.sv(39): $sformatf : Too many arguments.
#    Time: 105 ns  Iteration: 8  Region: /uvm_pkg::uvm_task_phase::execute
# UVM_INFO apb_master_driver.sv(39) @ 105: uvm_test_top.env.a_agt.drv [apb_master_driver] driver1 time                  105
# -----------------------------------------------------------------------------------------
# Name                           Type                 Size  Value                          
# -----------------------------------------------------------------------------------------
# seq                            apb_master_seq_item  -     @921                           
#   PRESETn                      integral             1     'b1                            
#   PSEL                         integral             1     'b0x                           
#   PENABLE                      integral             1     'b0x                           
#   PWRITE                       integral             1     'b0x                           
#   PADDR                        integral             8     'dX                            
#   PWDATA                       integral             32    'dX                            
#   PSTRB                        integral             4     'dX                            
#   PRDATA                       integral             8     'd96                           
#   PSLVERR                      integral             1     'b1                            
#   PREADY                       integral             1     'b1                            
#   transfer                     integral             1     'b1                            
#   write_read                   integral             1     'b1                            
#   addr_in                      integral             8     'd74                           
#   wdata_in                     integral             32    2766938712                     
#   strb_in                      integral             4     'b1110                         
#   rdata_out                    integral             32    'dX                            
#   transfer_done                integral             1     'b0x                           
#   error                        integral             1     'b0x                           
#   begin_time                   time                 64    105                            
#   depth                        int                  32    'd2                            
#   parent sequence (name)       string               3     seq                            
#   parent sequence (full name)  string               31    uvm_test_top.env.a_agt.seqr.seq
#   sequencer                    string               27    uvm_test_top.env.a_agt.seqr    
# -----------------------------------------------------------------------------------------
# ** Warning: (vsim-PLI-3070) apb_master_driver.sv(82): $sformatf : Too many arguments.
#    Time: 115 ns  Iteration: 3  Region: /uvm_pkg::uvm_task_phase::execute
# UVM_INFO apb_master_driver.sv(82) @ 115: uvm_test_top.env.a_agt.drv [apb_master_driver] driver2 time                 115
# -----------------------------------------------------------------------------------------
# Name                           Type                 Size  Value                          
# -----------------------------------------------------------------------------------------
# seq                            apb_master_seq_item  -     @921                           
#   PRESETn                      integral             1     'b1                            
#   PSEL                         integral             1     'b0x                           
#   PENABLE                      integral             1     'b0x                           
#   PWRITE                       integral             1     'b0x                           
#   PADDR                        integral             8     'dX                            
#   PWDATA                       integral             32    'dX                            
#   PSTRB                        integral             4     'dX                            
#   PRDATA                       integral             8     'd96                           
#   PSLVERR                      integral             1     'b1                            
#   PREADY                       integral             1     'b1                            
#   transfer                     integral             1     'b1                            
#   write_read                   integral             1     'b1                            
#   addr_in                      integral             8     'd74                           
#   wdata_in                     integral             32    2766938712                     
#   strb_in                      integral             4     'b1110                         
#   rdata_out                    integral             32    'dX                            
#   transfer_done                integral             1     'b0x                           
#   error                        integral             1     'b0x                           
#   begin_time                   time                 64    105                            
#   depth                        int                  32    'd2                            
#   parent sequence (name)       string               3     seq                            
#   parent sequence (full name)  string               31    uvm_test_top.env.a_agt.seqr.seq
#   sequencer                    string               27    uvm_test_top.env.a_agt.seqr    
# -----------------------------------------------------------------------------------------
# ** Warning: (vsim-PLI-3070) apb_master_active_monitor.sv(40): $sformatf : Too many arguments.
#    Time: 115 ns  Iteration: 3  Region: /uvm_pkg::uvm_task_phase::execute
# UVM_INFO apb_master_active_monitor.sv(40) @ 115: uvm_test_top.env.a_agt.mon [apb_master_active_monitor] Active monitor time                 115
# ------------------------------------------------------
# Name             Type                 Size  Value     
# ------------------------------------------------------
# seq              apb_master_seq_item  -     @937      
#   PRESETn        integral             1     'b1       
#   PSEL           integral             1     'b0x      
#   PENABLE        integral             1     'b0x      
#   PWRITE         integral             1     'b0x      
#   PADDR          integral             8     'dX       
#   PWDATA         integral             32    'dX       
#   PSTRB          integral             4     'dX       
#   PRDATA         integral             8     'd96      
#   PSLVERR        integral             1     'b1       
#   PREADY         integral             1     'b1       
#   transfer       integral             1     'b1       
#   write_read     integral             1     'b1       
#   addr_in        integral             8     'd74      
#   wdata_in       integral             32    2766938712
#   strb_in        integral             4     'b1110    
#   rdata_out      integral             32    'dX       
#   transfer_done  integral             1     'b0x      
#   error          integral             1     'b0x      
# ------------------------------------------------------
# ** Warning: (vsim-PLI-3070) apb_master_passive_monitor.sv(43): $sformatf : Too many arguments.
#    Time: 115 ns  Iteration: 4  Region: /uvm_pkg::uvm_task_phase::execute
# UVM_INFO apb_master_passive_monitor.sv(43) @ 115: uvm_test_top.env.p_agt.mon [apb_master_passive_monitor] Passive monitor time                 115
# -------------------------------------------------------
# Name             Type                 Size  Value      
# -------------------------------------------------------
# tr               apb_master_seq_item  -     @941       
#   PRESETn        integral             1     'b0x       
#   PSEL           integral             1     'b1        
#   PENABLE        integral             1     'b1        
#   PWRITE         integral             1     'b1        
#   PADDR          integral             8     139        
#   PWDATA         integral             32    'd510689322
#   PSTRB          integral             4     8          
#   PRDATA         integral             8     'dX        
#   PSLVERR        integral             1     'b0x       
#   PREADY         integral             1     'b0x       
#   transfer       integral             1     'b0x       
#   write_read     integral             1     'b0x       
#   addr_in        integral             8     'dX        
#   wdata_in       integral             32    'dX        
#   strb_in        integral             4     'b0xxxx    
#   rdata_out      integral             32    'd0        
#   transfer_done  integral             1     'b1        
#   error          integral             1     'b0        
# -------------------------------------------------------
# UVM_INFO apb_master_scoreboard.sv(137) @ 115: uvm_test_top.env.scb [APB_SCB] PSEL PASS  Exp=1  Act=1
# UVM_INFO apb_master_scoreboard.sv(142) @ 115: uvm_test_top.env.scb [APB_SCB] PENABLE PASS  Exp=1  Act=1
# UVM_INFO apb_master_scoreboard.sv(147) @ 115: uvm_test_top.env.scb [APB_SCB] PWRITE PASS  Exp=1  Act=1
# UVM_INFO apb_master_scoreboard.sv(152) @ 115: uvm_test_top.env.scb [APB_SCB] PADDR PASS  Exp=139  Act=139
# UVM_INFO apb_master_scoreboard.sv(157) @ 115: uvm_test_top.env.scb [APB_SCB] PWDATA PASS  Exp=510689322  Act=510689322
# UVM_INFO apb_master_scoreboard.sv(162) @ 115: uvm_test_top.env.scb [APB_SCB] PSTRB PASS  Exp=8  Act=8
# UVM_INFO apb_master_scoreboard.sv(167) @ 115: uvm_test_top.env.scb [APB_SCB] RDATA PASS  Exp=0  Act=0
# UVM_INFO apb_master_scoreboard.sv(172) @ 115: uvm_test_top.env.scb [APB_SCB] DONE PASS  Exp=1  Act=1
# UVM_INFO apb_master_scoreboard.sv(177) @ 115: uvm_test_top.env.scb [APB_SCB] ERROR PASS  Exp=0  Act=0
# ** Warning: (vsim-PLI-3070) apb_master_driver.sv(126): $sformatf : Too many arguments.
#    Time: 125 ns  Iteration: 3  Region: /uvm_pkg::uvm_task_phase::execute
# UVM_INFO apb_master_driver.sv(126) @ 125: uvm_test_top.env.a_agt.drv [apb_master_driver] driver3 time                  125
# -----------------------------------------------------------------------------------------
# Name                           Type                 Size  Value                          
# -----------------------------------------------------------------------------------------
# seq                            apb_master_seq_item  -     @921                           
#   PRESETn                      integral             1     'b1                            
#   PSEL                         integral             1     'b0x                           
#   PENABLE                      integral             1     'b0x                           
#   PWRITE                       integral             1     'b0x                           
#   PADDR                        integral             8     'dX                            
#   PWDATA                       integral             32    'dX                            
#   PSTRB                        integral             4     'dX                            
#   PRDATA                       integral             8     'd96                           
#   PSLVERR                      integral             1     'b1                            
#   PREADY                       integral             1     'b1                            
#   transfer                     integral             1     'b1                            
#   write_read                   integral             1     'b1                            
#   addr_in                      integral             8     'd74                           
#   wdata_in                     integral             32    2766938712                     
#   strb_in                      integral             4     'b1110                         
#   rdata_out                    integral             32    'dX                            
#   transfer_done                integral             1     'b0x                           
#   error                        integral             1     'b0x                           
#   begin_time                   time                 64    105                            
#   depth                        int                  32    'd2                            
#   parent sequence (name)       string               3     seq                            
#   parent sequence (full name)  string               31    uvm_test_top.env.a_agt.seqr.seq
#   sequencer                    string               27    uvm_test_top.env.a_agt.seqr    
# -----------------------------------------------------------------------------------------
# ** Warning: (vsim-PLI-3070) apb_master_active_monitor.sv(40): $sformatf : Too many arguments.
#    Time: 125 ns  Iteration: 3  Region: /uvm_pkg::uvm_task_phase::execute
# UVM_INFO apb_master_active_monitor.sv(40) @ 125: uvm_test_top.env.a_agt.mon [apb_master_active_monitor] Active monitor time                 125
# ------------------------------------------------------
# Name             Type                 Size  Value     
# ------------------------------------------------------
# seq              apb_master_seq_item  -     @945      
#   PRESETn        integral             1     'b1       
#   PSEL           integral             1     'b0x      
#   PENABLE        integral             1     'b0x      
#   PWRITE         integral             1     'b0x      
#   PADDR          integral             8     'dX       
#   PWDATA         integral             32    'dX       
#   PSTRB          integral             4     'dX       
#   PRDATA         integral             8     'd96      
#   PSLVERR        integral             1     'b1       
#   PREADY         integral             1     'b1       
#   transfer       integral             1     'b1       
#   write_read     integral             1     'b1       
#   addr_in        integral             8     'd74      
#   wdata_in       integral             32    2766938712
#   strb_in        integral             4     'b1110    
#   rdata_out      integral             32    'dX       
#   transfer_done  integral             1     'b0x      
#   error          integral             1     'b0x      
# ------------------------------------------------------
# ** Warning: (vsim-PLI-3070) apb_master_passive_monitor.sv(43): $sformatf : Too many arguments.
#    Time: 125 ns  Iteration: 4  Region: /uvm_pkg::uvm_task_phase::execute
# UVM_INFO apb_master_passive_monitor.sv(43) @ 125: uvm_test_top.env.p_agt.mon [apb_master_passive_monitor] Passive monitor time                 125
# -------------------------------------------------------
# Name             Type                 Size  Value      
# -------------------------------------------------------
# tr               apb_master_seq_item  -     @953       
#   PRESETn        integral             1     'b0x       
#   PSEL           integral             1     'b0        
#   PENABLE        integral             1     'b0        
#   PWRITE         integral             1     'b1        
#   PADDR          integral             8     139        
#   PWDATA         integral             32    'd510689322
#   PSTRB          integral             4     8          
#   PRDATA         integral             8     'dX        
#   PSLVERR        integral             1     'b0x       
#   PREADY         integral             1     'b0x       
#   transfer       integral             1     'b0x       
#   write_read     integral             1     'b0x       
#   addr_in        integral             8     'dX        
#   wdata_in       integral             32    'dX        
#   strb_in        integral             4     'b0xxxx    
#   rdata_out      integral             32    'd0        
#   transfer_done  integral             1     'b0        
#   error          integral             1     'b0        
# -------------------------------------------------------
# UVM_ERROR apb_master_scoreboard.sv(139) @ 125: uvm_test_top.env.scb [APB_SCB] PSEL FAIL  Exp=1  Act=0
# UVM_INFO apb_master_scoreboard.sv(142) @ 125: uvm_test_top.env.scb [APB_SCB] PENABLE PASS  Exp=0  Act=0
# UVM_INFO apb_master_scoreboard.sv(147) @ 125: uvm_test_top.env.scb [APB_SCB] PWRITE PASS  Exp=1  Act=1
# UVM_INFO apb_master_scoreboard.sv(152) @ 125: uvm_test_top.env.scb [APB_SCB] PADDR PASS  Exp=139  Act=139
# UVM_INFO apb_master_scoreboard.sv(157) @ 125: uvm_test_top.env.scb [APB_SCB] PWDATA PASS  Exp=510689322  Act=510689322
# UVM_INFO apb_master_scoreboard.sv(162) @ 125: uvm_test_top.env.scb [APB_SCB] PSTRB PASS  Exp=8  Act=8
# UVM_INFO apb_master_scoreboard.sv(167) @ 125: uvm_test_top.env.scb [APB_SCB] RDATA PASS  Exp=0  Act=0
# UVM_INFO apb_master_scoreboard.sv(172) @ 125: uvm_test_top.env.scb [APB_SCB] DONE PASS  Exp=0  Act=0
# UVM_INFO apb_master_scoreboard.sv(177) @ 125: uvm_test_top.env.scb [APB_SCB] ERROR PASS  Exp=0  Act=0
# ** Warning: (vsim-PLI-3070) apb_master_active_monitor.sv(40): $sformatf : Too many arguments.
#    Time: 135 ns  Iteration: 3  Region: /uvm_pkg::uvm_task_phase::execute
# UVM_INFO apb_master_active_monitor.sv(40) @ 135: uvm_test_top.env.a_agt.mon [apb_master_active_monitor] Active monitor time                 135
# ------------------------------------------------------
# Name             Type                 Size  Value     
# ------------------------------------------------------
# seq              apb_master_seq_item  -     @957      
#   PRESETn        integral             1     'b1       
#   PSEL           integral             1     'b0x      
#   PENABLE        integral             1     'b0x      
#   PWRITE         integral             1     'b0x      
#   PADDR          integral             8     'dX       
#   PWDATA         integral             32    'dX       
#   PSTRB          integral             4     'dX       
#   PRDATA         integral             8     'd96      
#   PSLVERR        integral             1     'b1       
#   PREADY         integral             1     'b1       
#   transfer       integral             1     'b1       
#   write_read     integral             1     'b1       
#   addr_in        integral             8     'd74      
#   wdata_in       integral             32    2766938712
#   strb_in        integral             4     'b1110    
#   rdata_out      integral             32    'dX       
#   transfer_done  integral             1     'b0x      
#   error          integral             1     'b0x      
# ------------------------------------------------------
# ** Warning: (vsim-PLI-3070) apb_master_passive_monitor.sv(43): $sformatf : Too many arguments.
#    Time: 135 ns  Iteration: 4  Region: /uvm_pkg::uvm_task_phase::execute
# UVM_INFO apb_master_passive_monitor.sv(43) @ 135: uvm_test_top.env.p_agt.mon [apb_master_passive_monitor] Passive monitor time                 135
# ------------------------------------------------------
# Name             Type                 Size  Value     
# ------------------------------------------------------
# tr               apb_master_seq_item  -     @961      
#   PRESETn        integral             1     'b0x      
#   PSEL           integral             1     'b1       
#   PENABLE        integral             1     'b0       
#   PWRITE         integral             1     'b1       
#   PADDR          integral             8     'd74      
#   PWDATA         integral             32    2766938712
#   PSTRB          integral             4     14        
#   PRDATA         integral             8     'dX       
#   PSLVERR        integral             1     'b0x      
#   PREADY         integral             1     'b0x      
#   transfer       integral             1     'b0x      
#   write_read     integral             1     'b0x      
#   addr_in        integral             8     'dX       
#   wdata_in       integral             32    'dX       
#   strb_in        integral             4     'b0xxxx   
#   rdata_out      integral             32    'd0       
#   transfer_done  integral             1     'b0       
#   error          integral             1     'b0       
# ------------------------------------------------------
# UVM_INFO apb_master_scoreboard.sv(137) @ 135: uvm_test_top.env.scb [APB_SCB] PSEL PASS  Exp=1  Act=1
# UVM_ERROR apb_master_scoreboard.sv(144) @ 135: uvm_test_top.env.scb [APB_SCB] PENABLE FAIL  Exp=1  Act=0
# UVM_INFO apb_master_scoreboard.sv(147) @ 135: uvm_test_top.env.scb [APB_SCB] PWRITE PASS  Exp=1  Act=1
# UVM_INFO apb_master_scoreboard.sv(152) @ 135: uvm_test_top.env.scb [APB_SCB] PADDR PASS  Exp=74  Act=74
# UVM_INFO apb_master_scoreboard.sv(157) @ 135: uvm_test_top.env.scb [APB_SCB] PWDATA PASS  Exp=2766938712  Act=2766938712
# UVM_INFO apb_master_scoreboard.sv(162) @ 135: uvm_test_top.env.scb [APB_SCB] PSTRB PASS  Exp=14  Act=14
# UVM_INFO apb_master_scoreboard.sv(167) @ 135: uvm_test_top.env.scb [APB_SCB] RDATA PASS  Exp=0  Act=0
# UVM_ERROR apb_master_scoreboard.sv(174) @ 135: uvm_test_top.env.scb [APB_SCB] DONE FAIL  Exp=1  Act=0
# UVM_ERROR apb_master_scoreboard.sv(179) @ 135: uvm_test_top.env.scb [APB_SCB] ERROR FAIL  Exp=1  Act=0
# ** Warning: (vsim-PLI-3070) apb_master_driver.sv(39): $sformatf : Too many arguments.
#    Time: 135 ns  Iteration: 8  Region: /uvm_pkg::uvm_task_phase::execute
# UVM_INFO apb_master_driver.sv(39) @ 135: uvm_test_top.env.a_agt.drv [apb_master_driver] driver1 time                  135
# -----------------------------------------------------------------------------------------
# Name                           Type                 Size  Value                          
# -----------------------------------------------------------------------------------------
# seq                            apb_master_seq_item  -     @949                           
#   PRESETn                      integral             1     'b1                            
#   PSEL                         integral             1     'b0x                           
#   PENABLE                      integral             1     'b0x                           
#   PWRITE                       integral             1     'b0x                           
#   PADDR                        integral             8     'dX                            
#   PWDATA                       integral             32    'dX                            
#   PSTRB                        integral             4     'dX                            
#   PRDATA                       integral             8     170                            
#   PSLVERR                      integral             1     'b0                            
#   PREADY                       integral             1     'b1                            
#   transfer                     integral             1     'b1                            
#   write_read                   integral             1     'b1                            
#   addr_in                      integral             8     'd58                           
#   wdata_in                     integral             32    2312597191                     
#   strb_in                      integral             4     'b1000                         
#   rdata_out                    integral             32    'dX                            
#   transfer_done                integral             1     'b0x                           
#   error                        integral             1     'b0x                           
#   begin_time                   time                 64    135                            
#   depth                        int                  32    'd2                            
#   parent sequence (name)       string               3     seq                            
#   parent sequence (full name)  string               31    uvm_test_top.env.a_agt.seqr.seq
#   sequencer                    string               27    uvm_test_top.env.a_agt.seqr    
# -----------------------------------------------------------------------------------------
# ** Warning: (vsim-PLI-3070) apb_master_driver.sv(82): $sformatf : Too many arguments.
#    Time: 145 ns  Iteration: 3  Region: /uvm_pkg::uvm_task_phase::execute
# UVM_INFO apb_master_driver.sv(82) @ 145: uvm_test_top.env.a_agt.drv [apb_master_driver] driver2 time                 145
# -----------------------------------------------------------------------------------------
# Name                           Type                 Size  Value                          
# -----------------------------------------------------------------------------------------
# seq                            apb_master_seq_item  -     @949                           
#   PRESETn                      integral             1     'b1                            
#   PSEL                         integral             1     'b0x                           
#   PENABLE                      integral             1     'b0x                           
#   PWRITE                       integral             1     'b0x                           
#   PADDR                        integral             8     'dX                            
#   PWDATA                       integral             32    'dX                            
#   PSTRB                        integral             4     'dX                            
#   PRDATA                       integral             8     170                            
#   PSLVERR                      integral             1     'b0                            
#   PREADY                       integral             1     'b1                            
#   transfer                     integral             1     'b1                            
#   write_read                   integral             1     'b1                            
#   addr_in                      integral             8     'd58                           
#   wdata_in                     integral             32    2312597191                     
#   strb_in                      integral             4     'b1000                         
#   rdata_out                    integral             32    'dX                            
#   transfer_done                integral             1     'b0x                           
#   error                        integral             1     'b0x                           
#   begin_time                   time                 64    135                            
#   depth                        int                  32    'd2                            
#   parent sequence (name)       string               3     seq                            
#   parent sequence (full name)  string               31    uvm_test_top.env.a_agt.seqr.seq
#   sequencer                    string               27    uvm_test_top.env.a_agt.seqr    
# -----------------------------------------------------------------------------------------
# ** Warning: (vsim-PLI-3070) apb_master_active_monitor.sv(40): $sformatf : Too many arguments.
#    Time: 145 ns  Iteration: 3  Region: /uvm_pkg::uvm_task_phase::execute
# UVM_INFO apb_master_active_monitor.sv(40) @ 145: uvm_test_top.env.a_agt.mon [apb_master_active_monitor] Active monitor time                 145
# ------------------------------------------------------
# Name             Type                 Size  Value     
# ------------------------------------------------------
# seq              apb_master_seq_item  -     @965      
#   PRESETn        integral             1     'b1       
#   PSEL           integral             1     'b0x      
#   PENABLE        integral             1     'b0x      
#   PWRITE         integral             1     'b0x      
#   PADDR          integral             8     'dX       
#   PWDATA         integral             32    'dX       
#   PSTRB          integral             4     'dX       
#   PRDATA         integral             8     170       
#   PSLVERR        integral             1     'b0       
#   PREADY         integral             1     'b1       
#   transfer       integral             1     'b1       
#   write_read     integral             1     'b1       
#   addr_in        integral             8     'd58      
#   wdata_in       integral             32    2312597191
#   strb_in        integral             4     'b1000    
#   rdata_out      integral             32    'dX       
#   transfer_done  integral             1     'b0x      
#   error          integral             1     'b0x      
# ------------------------------------------------------
# ** Warning: (vsim-PLI-3070) apb_master_passive_monitor.sv(43): $sformatf : Too many arguments.
#    Time: 145 ns  Iteration: 4  Region: /uvm_pkg::uvm_task_phase::execute
# UVM_INFO apb_master_passive_monitor.sv(43) @ 145: uvm_test_top.env.p_agt.mon [apb_master_passive_monitor] Passive monitor time                 145
# ------------------------------------------------------
# Name             Type                 Size  Value     
# ------------------------------------------------------
# tr               apb_master_seq_item  -     @969      
#   PRESETn        integral             1     'b0x      
#   PSEL           integral             1     'b1       
#   PENABLE        integral             1     'b1       
#   PWRITE         integral             1     'b1       
#   PADDR          integral             8     'd74      
#   PWDATA         integral             32    2766938712
#   PSTRB          integral             4     14        
#   PRDATA         integral             8     'dX       
#   PSLVERR        integral             1     'b0x      
#   PREADY         integral             1     'b0x      
#   transfer       integral             1     'b0x      
#   write_read     integral             1     'b0x      
#   addr_in        integral             8     'dX       
#   wdata_in       integral             32    'dX       
#   strb_in        integral             4     'b0xxxx   
#   rdata_out      integral             32    'd0       
#   transfer_done  integral             1     'b1       
#   error          integral             1     'b1       
# ------------------------------------------------------
# UVM_INFO apb_master_scoreboard.sv(137) @ 145: uvm_test_top.env.scb [APB_SCB] PSEL PASS  Exp=1  Act=1
# UVM_ERROR apb_master_scoreboard.sv(144) @ 145: uvm_test_top.env.scb [APB_SCB] PENABLE FAIL  Exp=0  Act=1
# UVM_INFO apb_master_scoreboard.sv(147) @ 145: uvm_test_top.env.scb [APB_SCB] PWRITE PASS  Exp=1  Act=1
# UVM_INFO apb_master_scoreboard.sv(152) @ 145: uvm_test_top.env.scb [APB_SCB] PADDR PASS  Exp=74  Act=74
# UVM_INFO apb_master_scoreboard.sv(157) @ 145: uvm_test_top.env.scb [APB_SCB] PWDATA PASS  Exp=2766938712  Act=2766938712
# UVM_INFO apb_master_scoreboard.sv(162) @ 145: uvm_test_top.env.scb [APB_SCB] PSTRB PASS  Exp=14  Act=14
# UVM_INFO apb_master_scoreboard.sv(167) @ 145: uvm_test_top.env.scb [APB_SCB] RDATA PASS  Exp=0  Act=0
# UVM_ERROR apb_master_scoreboard.sv(174) @ 145: uvm_test_top.env.scb [APB_SCB] DONE FAIL  Exp=0  Act=1
# UVM_ERROR apb_master_scoreboard.sv(179) @ 145: uvm_test_top.env.scb [APB_SCB] ERROR FAIL  Exp=0  Act=1
# ** Warning: (vsim-PLI-3070) apb_master_driver.sv(126): $sformatf : Too many arguments.
#    Time: 155 ns  Iteration: 3  Region: /uvm_pkg::uvm_task_phase::execute
# UVM_INFO apb_master_driver.sv(126) @ 155: uvm_test_top.env.a_agt.drv [apb_master_driver] driver3 time                  155
# -----------------------------------------------------------------------------------------
# Name                           Type                 Size  Value                          
# -----------------------------------------------------------------------------------------
# seq                            apb_master_seq_item  -     @949                           
#   PRESETn                      integral             1     'b1                            
#   PSEL                         integral             1     'b0x                           
#   PENABLE                      integral             1     'b0x                           
#   PWRITE                       integral             1     'b0x                           
#   PADDR                        integral             8     'dX                            
#   PWDATA                       integral             32    'dX                            
#   PSTRB                        integral             4     'dX                            
#   PRDATA                       integral             8     170                            
#   PSLVERR                      integral             1     'b0                            
#   PREADY                       integral             1     'b1                            
#   transfer                     integral             1     'b1                            
#   write_read                   integral             1     'b1                            
#   addr_in                      integral             8     'd58                           
#   wdata_in                     integral             32    2312597191                     
#   strb_in                      integral             4     'b1000                         
#   rdata_out                    integral             32    'dX                            
#   transfer_done                integral             1     'b0x                           
#   error                        integral             1     'b0x                           
#   begin_time                   time                 64    135                            
#   depth                        int                  32    'd2                            
#   parent sequence (name)       string               3     seq                            
#   parent sequence (full name)  string               31    uvm_test_top.env.a_agt.seqr.seq
#   sequencer                    string               27    uvm_test_top.env.a_agt.seqr    
# -----------------------------------------------------------------------------------------
# ** Warning: (vsim-PLI-3070) apb_master_active_monitor.sv(40): $sformatf : Too many arguments.
#    Time: 155 ns  Iteration: 3  Region: /uvm_pkg::uvm_task_phase::execute
# UVM_INFO apb_master_active_monitor.sv(40) @ 155: uvm_test_top.env.a_agt.mon [apb_master_active_monitor] Active monitor time                 155
# ------------------------------------------------------
# Name             Type                 Size  Value     
# ------------------------------------------------------
# seq              apb_master_seq_item  -     @973      
#   PRESETn        integral             1     'b1       
